T15A4 62051:410.332   SEGGER J-Link V7.54c Log File
T15A4 62051:410.379   DLL Compiled: Sep 20 2021 13:55:02
T15A4 62051:410.387   Logging started @ 2021-09-27 08:45
T15A4 62051:410.395 - 340.217ms
T15A4 62051:410.405 JLINK_SetWarnOutHandler(...)
T15A4 62051:410.412 - 0.010ms
T15A4 62051:410.421 JLINK_OpenEx(...)
T15A4 62051:411.423   Firmware: J-Link V9 compiled May  7 2021 16:26:12
T15A4 62051:411.761   Firmware: J-Link V9 compiled May  7 2021 16:26:12
T15A4 62051:411.920   Decompressing FW timestamp took 135 us
T15A4 62051:417.740   Hardware: V9.30
T15A4 62051:417.761   S/N: 59303447
T15A4 62051:417.771   OEM: SEGGER
T15A4 62051:417.781   Feature(s): GDB
T15A4 62051:419.089   TELNET listener socket opened on port 19021
T15A4 62051:423.481   WEBSRV Starting webserver
T15A4 62051:423.588   WEBSRV Webserver running on local port 19080
T15A4 62051:427.941 - 17.533ms returns "O.K."
T15A4 62051:427.969 JLINK_GetEmuCaps()
T15A4 62051:427.977 - 0.011ms returns 0xB9FF7BBF
T15A4 62051:427.986 JLINK_TIF_GetAvailable(...)
T15A4 62051:428.182 - 0.202ms
T15A4 62051:428.199 JLINK_SetErrorOutHandler(...)
T15A4 62051:428.206 - 0.010ms
T15A4 62051:428.218 JLINK_ExecCommand("ProjectFile = "D:\Projects\Keil uVision\test_assignment\JLinkSettings.ini"", ...). 
T15A4 62051:428.840 - 0.628ms returns 0x00
T15A4 62051:428.873 JLINK_ExecCommand("Device = STM32F103RB", ...). 
T15A4 62051:429.196   Device "STM32F103RB" selected.
T15A4 62051:429.397 - 0.520ms returns 0x00
T15A4 62051:429.411 JLINK_ExecCommand("DisableConnectionTimeout", ...). 
T15A4 62051:429.422 - 0.004ms returns 0x01
T15A4 62051:429.432 JLINK_GetHardwareVersion()
T15A4 62051:429.438 - 0.009ms returns 93000
T15A4 62051:429.448 JLINK_GetDLLVersion()
T15A4 62051:429.455 - 0.009ms returns 75403
T15A4 62051:429.464 JLINK_GetOEMString(...)
T15A4 62051:429.473 JLINK_GetFirmwareString(...)
T15A4 62051:429.479 - 0.009ms
T15A4 62051:429.500 JLINK_GetDLLVersion()
T15A4 62051:429.507 - 0.010ms returns 75403
T15A4 62051:429.516 JLINK_GetCompileDateTime()
T15A4 62051:429.523 - 0.009ms
T15A4 62051:429.536 JLINK_GetFirmwareString(...)
T15A4 62051:429.543 - 0.010ms
T15A4 62051:429.555 JLINK_GetHardwareVersion()
T15A4 62051:429.561 - 0.009ms returns 93000
T15A4 62051:429.573 JLINK_GetSN()
T15A4 62051:429.580 - 0.010ms returns 59303447
T15A4 62051:429.592 JLINK_GetOEMString(...)
T15A4 62051:429.609 JLINK_TIF_Select(JLINKARM_TIF_JTAG)
T15A4 62051:430.417 - 0.816ms returns 0x00
T15A4 62051:430.434 JLINK_HasError()
T15A4 62051:430.445 JLINK_SetSpeed(5000)
T15A4 62051:430.505 - 0.067ms
T15A4 62051:430.522 JLINK_GetIdData(pIdData)
T15A4 62051:430.685   InitTarget() start
T15A4 62051:430.699    J-Link Script File: Executing InitTarget()
T15A4 62051:434.055   InitTarget() end
T15A4 62051:434.915   TotalIRLen = 9, IRPrint = 0x0011
T15A4 62051:435.316   JTAG chain detection found 2 devices:
T15A4 62051:435.337    #0 Id: 0x3BA00477, IRLen: 04, CoreSight JTAG-DP
T15A4 62051:435.351    #1 Id: 0x16410041, IRLen: 05, STM32 Boundary Scan
T15A4 62051:436.449   DPv0 detected
T15A4 62051:436.469   Scanning AP map to find all available APs
T15A4 62051:437.079   AP[1]: Stopped AP scan as end of AP map has been reached
T15A4 62051:437.099   AP[0]: AHB-AP (IDR: 0x14770011)
T15A4 62051:437.112   Iterating through AP map to find AHB-AP to use
T15A4 62051:437.868   AP[0]: Core found
T15A4 62051:437.887   AP[0]: AHB-AP ROM base: 0xE00FF000
T15A4 62051:438.319   CPUID register: 0x411FC231. Implementer code: 0x41 (ARM)
T15A4 62051:438.339   Found Cortex-M3 r1p1, Little endian.
T15A4 62051:438.665   -- Max. mem block: 0x00010E60
T15A4 62051:438.793   CPU_ReadMem(4 bytes @ 0xE000EDF0)
T15A4 62051:439.845   CPU_WriteMem(4 bytes @ 0xE000EDF0)
T15A4 62051:440.192   CPU_ReadMem(4 bytes @ 0xE0002000)
T15A4 62051:440.503   FPUnit: 6 code (BP) slots and 2 literal slots
T15A4 62051:440.520   CPU_ReadMem(4 bytes @ 0xE000EDFC)
T15A4 62051:440.816   CPU_WriteMem(4 bytes @ 0xE000EDFC)
T15A4 62051:441.033   CPU_ReadMem(4 bytes @ 0xE0001000)
T15A4 62051:441.349   CPU_WriteMem(4 bytes @ 0xE0001000)
T15A4 62051:441.690   CPU_ReadMem(4 bytes @ 0xE000ED88)
T15A4 62051:441.981   CPU_WriteMem(4 bytes @ 0xE000ED88)
T15A4 62051:442.295   CPU_ReadMem(4 bytes @ 0xE000ED88)
T15A4 62051:442.592   CPU_WriteMem(4 bytes @ 0xE000ED88)
T15A4 62051:442.946   CoreSight components:
T15A4 62051:442.966   ROMTbl[0] @ E00FF000
T15A4 62051:442.978   CPU_ReadMem(64 bytes @ 0xE00FF000)
T15A4 62051:443.675   CPU_ReadMem(32 bytes @ 0xE000EFE0)
T15A4 62051:444.082   [0][0]: E000E000 CID B105E00D PID 001BB000 SCS
T15A4 62051:444.098   CPU_ReadMem(32 bytes @ 0xE0001FE0)
T15A4 62051:444.527   [0][1]: E0001000 CID B105E00D PID 001BB002 DWT
T15A4 62051:444.544   CPU_ReadMem(32 bytes @ 0xE0002FE0)
T15A4 62051:444.968   [0][2]: E0002000 CID B105E00D PID 000BB003 FPB
T15A4 62051:444.985   CPU_ReadMem(32 bytes @ 0xE0000FE0)
T15A4 62051:445.376   [0][3]: E0000000 CID B105E00D PID 001BB001 ITM
T15A4 62051:445.392   CPU_ReadMem(32 bytes @ 0xE0040FE0)
T15A4 62051:445.817   [0][4]: E0040000 CID B105900D PID 001BB923 TPIU-Lite
T15A4 62051:445.837   pIdData->ScanLen=9
T15A4 62051:445.847   
T15A4 62051:445.853   pIdData->NumDevices=2
T15A4 62051:445.862   
T15A4 62051:445.869   pIdData->aId[0]=0x3BA00477
T15A4 62051:445.878   
T15A4 62051:445.884   pIdData->aIrRead[0]=0
T15A4 62051:445.893   
T15A4 62051:445.900   pIdData->aScanLen[0]=0
T15A4 62051:445.908   
T15A4 62051:445.915   pIdData->aScanRead[0]=0
T15A4 62051:445.924   
T15A4 62051:445.930 - 15.411ms
T15A4 62051:445.944 JLINK_JTAG_GetDeviceID(DeviceIndex = 0)
T15A4 62051:445.952 - 0.010ms returns 1000342647
T15A4 62051:445.962 JLINK_JTAG_GetDeviceInfo(DeviceIndex = 0)
T15A4 62051:445.969 - 0.010ms returns 0
T15A4 62051:445.978 JLINK_JTAG_GetDeviceID(DeviceIndex = 1)
T15A4 62051:445.985 - 0.009ms returns 373358657
T15A4 62051:445.994 JLINK_JTAG_GetDeviceInfo(DeviceIndex = 1)
T15A4 62051:446.002 - 0.011ms returns 0
T15A4 62051:446.012 JLINK_GetDLLVersion()
T15A4 62051:446.018 - 0.009ms returns 75403
T15A4 62051:446.028 JLINK_CORE_GetFound()
T15A4 62051:446.035 - 0.009ms returns 0x30000FF
T15A4 62051:446.045 JLINK_GetDebugInfo(0x100 = JLINKARM_ROM_TABLE_ADDR_INDEX)
T15A4 62051:446.052   Value=0xE00FF000
T15A4 62051:446.062 - 0.020ms returns 0
T15A4 62051:446.373 JLINK_GetDebugInfo(0x100 = JLINKARM_ROM_TABLE_ADDR_INDEX)
T15A4 62051:446.386   Value=0xE00FF000
T15A4 62051:446.396 - 0.026ms returns 0
T15A4 62051:446.405 JLINK_GetDebugInfo(0x101 = JLINKARM_DEBUG_INFO_ETM_ADDR_INDEX)
T15A4 62051:446.412   Value=0x00000000
T15A4 62051:446.421 - 0.019ms returns 0
T15A4 62051:446.431 JLINK_ReadMemEx(0xE0041FF0, 0x10 Bytes, Flags = 0x02000004)
T15A4 62051:446.444   CPU_ReadMem(16 bytes @ 0xE0041FF0)
T15A4 62051:446.745   Data:  00 00 00 00 00 00 00 00 00 00 00 00 00 00 00 00
T15A4 62051:446.760 - 0.331ms returns 16 (0x10)
T15A4 62051:446.770 JLINK_GetDebugInfo(0x102 = JLINKARM_DEBUG_INFO_MTB_ADDR_INDEX)
T15A4 62051:446.777   Value=0x00000000
T15A4 62051:446.786 - 0.020ms returns 0
T15A4 62051:446.794 JLINK_GetDebugInfo(0x103 = JLINKARM_DEBUG_INFO_TPIU_ADDR_INDEX)
T15A4 62051:446.801   Value=0xE0040000
T15A4 62051:446.811 - 0.019ms returns 0
T15A4 62051:446.819 JLINK_GetDebugInfo(0x104 = JLINKARM_DEBUG_INFO_ITM_ADDR_INDEX)
T15A4 62051:446.826   Value=0xE0000000
T15A4 62051:446.835 - 0.019ms returns 0
T15A4 62051:446.843 JLINK_GetDebugInfo(0x105 = JLINKARM_DEBUG_INFO_DWT_ADDR_INDEX)
T15A4 62051:446.850   Value=0xE0001000
T15A4 62051:446.859 - 0.019ms returns 0
T15A4 62051:446.867 JLINK_GetDebugInfo(0x106 = JLINKARM_DEBUG_INFO_FPB_ADDR_INDEX)
T15A4 62051:446.874   Value=0xE0002000
T15A4 62051:446.883 - 0.019ms returns 0
T15A4 62051:446.891 JLINK_GetDebugInfo(0x107 = JLINKARM_DEBUG_INFO_NVIC_ADDR_INDEX)
T15A4 62051:446.898   Value=0xE000E000
T15A4 62051:446.907 - 0.019ms returns 0
T15A4 62051:446.915 JLINK_GetDebugInfo(0x10C = JLINKARM_DEBUG_INFO_DBG_ADDR_INDEX)
T15A4 62051:446.922   Value=0xE000EDF0
T15A4 62051:446.931 - 0.019ms returns 0
T15A4 62051:446.939 JLINK_GetDebugInfo(0x01 = Unknown)
T15A4 62051:446.946   Value=0x00000000
T15A4 62051:446.958 - 0.022ms returns 0
T15A4 62051:446.967 JLINK_ReadMemU32(0xE000ED00, 0x1 Items)
T15A4 62051:446.978   CPU_ReadMem(4 bytes @ 0xE000ED00)
T15A4 62051:447.263   Data:  31 C2 1F 41
T15A4 62051:447.277   Debug reg: CPUID
T15A4 62051:447.286 - 0.322ms returns 1 (0x1)
T15A4 62051:447.296 JLINK_GetDebugInfo(0x10F = JLINKARM_DEBUG_INFO_HAS_CORTEX_M_SECURITY_EXT_INDEX)
T15A4 62051:447.304   Value=0x00000000
T15A4 62051:447.313 - 0.019ms returns 0
T15A4 62051:447.321 JLINK_HasError()
T15A4 62051:447.330 JLINK_SetResetType(JLINKARM_CM3_RESET_TYPE_NORMAL)
T15A4 62051:447.337 - 0.010ms returns JLINKARM_CM3_RESET_TYPE_NORMAL
T15A4 62051:447.346 JLINK_Reset()
T15A4 62051:447.356   CPU is running
T15A4 62051:447.366   CPU_WriteMem(4 bytes @ 0xE000EDF0)
T15A4 62051:447.581   CPU is running
T15A4 62051:447.596   CPU_WriteMem(4 bytes @ 0xE000EDFC)
T15A4 62051:447.814   Reset: Halt core after reset via DEMCR.VC_CORERESET.
T15A4 62051:447.833   Reset: Reset device via AIRCR.SYSRESETREQ.
T15A4 62051:447.844   CPU is running
T15A4 62051:447.854   CPU_WriteMem(4 bytes @ 0xE000ED0C)
T15A4 62051:500.655   CPU_ReadMem(4 bytes @ 0xE000EDF0)
T15A4 62051:501.152   CPU_ReadMem(4 bytes @ 0xE000EDF0)
T15A4 62051:501.546   CPU is running
T15A4 62051:501.567   CPU_WriteMem(4 bytes @ 0xE000EDF0)
T15A4 62051:501.970   CPU is running
T15A4 62051:502.000   CPU_WriteMem(4 bytes @ 0xE000EDFC)
T15A4 62051:507.568   CPU_ReadMem(4 bytes @ 0xE000EDF0)
T15A4 62051:509.823   CPU_WriteMem(4 bytes @ 0xE000EDFC)
T15A4 62051:510.140   CPU_WriteMem(4 bytes @ 0xE0001028)
T15A4 62051:510.486   CPU_WriteMem(4 bytes @ 0xE0001038)
T15A4 62051:510.839   CPU_WriteMem(4 bytes @ 0xE0001048)
T15A4 62051:511.206   CPU_WriteMem(4 bytes @ 0xE0001058)
T15A4 62051:511.529   CPU_WriteMem(4 bytes @ 0xE0002000)
T15A4 62051:511.848   CPU_ReadMem(4 bytes @ 0xE000EDFC)
T15A4 62051:512.274   CPU_ReadMem(4 bytes @ 0xE0001000)
T15A4 62051:512.576 - 65.244ms
T15A4 62051:512.657 JLINK_HasError()
T15A4 62051:512.683 JLINK_ReadReg(R15 (PC))
T15A4 62051:512.697 - 0.019ms returns 0x08001440
T15A4 62051:512.710 JLINK_ReadReg(XPSR)
T15A4 62051:512.720 - 0.016ms returns 0x01000000
T15A4 62051:512.736 JLINK_Halt()
T15A4 62051:512.747 - 0.016ms returns 0x00
T15A4 62051:512.760 JLINK_ReadMemU32(0xE000EDF0, 0x1 Items)
T15A4 62051:512.775   CPU_ReadMem(4 bytes @ 0xE000EDF0)
T15A4 62051:513.057   Data:  03 00 03 00
T15A4 62051:513.078   Debug reg: DHCSR
T15A4 62051:513.092 - 0.336ms returns 1 (0x1)
T15A4 62051:513.108 JLINK_WriteU32_64(0xE000EDF0, 0xA05F0003)
T15A4 62051:513.119   Debug reg: DHCSR
T15A4 62051:513.705   CPU_WriteMem(4 bytes @ 0xE000EDF0)
T15A4 62051:513.981 - 0.881ms returns 0 (0x00000000)
T15A4 62051:513.998 JLINK_WriteU32_64(0xE000EDFC, 0x01000000)
T15A4 62051:514.005   Debug reg: DEMCR
T15A4 62051:514.020   CPU_WriteMem(4 bytes @ 0xE000EDFC)
T15A4 62051:514.297 - 0.309ms returns 0 (0x00000000)
T15A4 62051:514.348 JLINK_GetHWStatus(...)
T15A4 62051:514.513 - 0.175ms returns 0
T15A4 62051:514.563 JLINK_GetNumBPUnits(Type = 0xFFFFFF00)
T15A4 62051:514.576 - 0.019ms returns 0x06
T15A4 62051:514.590 JLINK_GetNumBPUnits(Type = 0xF0)
T15A4 62051:514.600 - 0.015ms returns 0x2000
T15A4 62051:514.615 JLINK_GetNumWPUnits()
T15A4 62051:514.625 - 0.015ms returns 4
T15A4 62051:514.654 JLINK_GetSpeed()
T15A4 62051:514.666 - 0.017ms returns 5000
T15A4 62051:514.690 JLINK_ReadMemU32(0xE000E004, 0x1 Items)
T15A4 62051:514.708   CPU_ReadMem(4 bytes @ 0xE000E004)
T15A4 62051:515.074   Data:  01 00 00 00
T15A4 62051:515.090 - 0.403ms returns 1 (0x1)
T15A4 62051:515.101 JLINK_ReadMemU32(0xE000E004, 0x1 Items)
T15A4 62051:515.111   CPU_ReadMem(4 bytes @ 0xE000E004)
T15A4 62051:515.522   Data:  01 00 00 00
T15A4 62051:515.538 - 0.441ms returns 1 (0x1)
T15A4 62051:515.552 JLINK_WriteMemEx(0xE0001000, 0x0000001C Bytes, Flags = 0x02000004)
T15A4 62051:515.560   Data:  01 00 00 00 00 00 00 00 00 00 00 00 00 00 00 00 ...
T15A4 62051:515.574   CPU_WriteMem(28 bytes @ 0xE0001000)
T15A4 62051:515.965 - 0.422ms returns 0x1C
T15A4 62051:515.985 JLINK_HasError()
T15A4 62051:515.995 JLINK_ReadReg(R15 (PC))
T15A4 62051:516.004 - 0.012ms returns 0x08001440
T15A4 62051:516.013 JLINK_ReadReg(XPSR)
T15A4 62051:516.020 - 0.010ms returns 0x01000000
T15A4 62051:631.650 JLINK_HasError()
T15A4 62051:631.679 JLINK_SetResetType(JLINKARM_CM3_RESET_TYPE_NORMAL)
T15A4 62051:631.687 - 0.011ms returns JLINKARM_CM3_RESET_TYPE_NORMAL
T15A4 62051:631.696 JLINK_Reset()
T15A4 62051:631.710   CPU_WriteMem(4 bytes @ 0xE000EDF0)
T15A4 62051:631.934   CPU_WriteMem(4 bytes @ 0xE000EDFC)
T15A4 62051:632.160   Reset: Halt core after reset via DEMCR.VC_CORERESET.
T15A4 62051:632.180   Reset: Reset device via AIRCR.SYSRESETREQ.
T15A4 62051:632.192   CPU_WriteMem(4 bytes @ 0xE000ED0C)
T15A4 62051:684.591   CPU_ReadMem(4 bytes @ 0xE000EDF0)
T15A4 62051:685.386   CPU_ReadMem(4 bytes @ 0xE000EDF0)
T15A4 62051:685.787   CPU_WriteMem(4 bytes @ 0xE000EDF0)
T15A4 62051:686.150   CPU_WriteMem(4 bytes @ 0xE000EDFC)
T15A4 62051:691.582   CPU_ReadMem(4 bytes @ 0xE000EDF0)
T15A4 62051:694.410   CPU_WriteMem(4 bytes @ 0xE000EDFC)
T15A4 62051:694.769   CPU_WriteMem(4 bytes @ 0xE0001028)
T15A4 62051:695.154   CPU_WriteMem(4 bytes @ 0xE0001038)
T15A4 62051:695.533   CPU_WriteMem(4 bytes @ 0xE0001048)
T15A4 62051:695.925   CPU_WriteMem(4 bytes @ 0xE0001058)
T15A4 62051:696.227   CPU_WriteMem(4 bytes @ 0xE0002000)
T15A4 62051:696.509   CPU_ReadMem(4 bytes @ 0xE000EDFC)
T15A4 62051:696.847   CPU_ReadMem(4 bytes @ 0xE0001000)
T15A4 62051:697.171 - 65.484ms
T15A4 62051:697.211 JLINK_HasError()
T15A4 62051:697.221 JLINK_ReadReg(R15 (PC))
T15A4 62051:697.231 - 0.012ms returns 0x08001440
T15A4 62051:697.240 JLINK_ReadReg(XPSR)
T15A4 62051:697.248 - 0.010ms returns 0x01000000
T15A4 62051:839.827 JLINK_ReadMemEx(0x08001440, 0x3C Bytes, Flags = 0x02000000)
T15A4 62051:839.855   CPU_ReadMem(64 bytes @ 0x08001440)
T15A4 62051:840.663    -- Updating C cache (64 bytes @ 0x08001440)
T15A4 62051:840.690    -- Read from C cache (60 bytes @ 0x08001440)
T15A4 62051:840.702   Data:  09 48 80 47 09 48 00 47 FE E7 FE E7 FE E7 FE E7 ...
T15A4 62051:840.712 - 0.888ms returns 60 (0x3C)
T15A4 62051:884.887 JLINK_ReadMemEx(0x40010800, 0x4 Bytes, Flags = 0x02000000)
T15A4 62051:884.921   CPU_ReadMem(4 bytes @ 0x40010800)
T15A4 62051:885.294   Data:  44 44 44 44
T15A4 62051:885.308 - 0.425ms returns 4 (0x4)
T15A4 62051:885.387 JLINK_ReadMemEx(0x40010804, 0x4 Bytes, Flags = 0x02000000)
T15A4 62051:885.398   CPU_ReadMem(4 bytes @ 0x40010804)
T15A4 62051:885.699   Data:  44 44 84 88
T15A4 62051:885.717 - 0.333ms returns 4 (0x4)
T15A4 62051:885.728 JLINK_ReadMemEx(0x40010808, 0x4 Bytes, Flags = 0x02000000)
T15A4 62051:885.739   CPU_ReadMem(4 bytes @ 0x40010808)
T15A4 62051:886.014   Data:  00 00 00 00
T15A4 62051:886.028 - 0.303ms returns 4 (0x4)
T15A4 62051:886.039 JLINK_ReadMemEx(0x4001080C, 0x4 Bytes, Flags = 0x02000000)
T15A4 62051:886.049   CPU_ReadMem(4 bytes @ 0x4001080C)
T15A4 62051:886.351   Data:  00 A0 00 00
T15A4 62051:886.367 - 0.331ms returns 4 (0x4)
T15A4 62051:886.378 JLINK_ReadMemEx(0x40010810, 0x4 Bytes, Flags = 0x02000000)
T15A4 62051:886.389   CPU_ReadMem(4 bytes @ 0x40010810)
T15A4 62051:886.718   Data:  00 00 00 00
T15A4 62051:886.732 - 0.357ms returns 4 (0x4)
T15A4 62051:886.743 JLINK_ReadMemEx(0x40010814, 0x4 Bytes, Flags = 0x02000000)
T15A4 62051:886.753   CPU_ReadMem(4 bytes @ 0x40010814)
T15A4 62051:887.107   Data:  00 00 00 00
T15A4 62051:887.121 - 0.381ms returns 4 (0x4)
T15A4 62051:887.131 JLINK_ReadMemEx(0x40010818, 0x4 Bytes, Flags = 0x02000000)
T15A4 62051:887.141   CPU_ReadMem(4 bytes @ 0x40010818)
T15A4 62051:887.481   Data:  00 00 00 00
T15A4 62051:887.495 - 0.367ms returns 4 (0x4)
T15A4 62051:888.483 JLINK_ReadMemEx(0x40021018, 0x4 Bytes, Flags = 0x02000000)
T15A4 62051:888.499   CPU_ReadMem(4 bytes @ 0x40021018)
T15A4 62051:888.784   Data:  00 00 00 00
T15A4 62051:888.798 - 0.319ms returns 4 (0x4)
T15A4 62051:888.868 JLINK_ReadMemEx(0x4002100C, 0x4 Bytes, Flags = 0x02000000)
T15A4 62051:888.879   CPU_ReadMem(4 bytes @ 0x4002100C)
T15A4 62051:889.211   Data:  00 00 00 00
T15A4 62051:889.225 - 0.360ms returns 4 (0x4)
T15A4 62051:932.729 JLINK_ReadMemEx(0x40010C00, 0x4 Bytes, Flags = 0x02000000)
T15A4 62051:932.763   CPU_ReadMem(4 bytes @ 0x40010C00)
T15A4 62051:933.072   Data:  44 44 48 44
T15A4 62051:933.088 - 0.362ms returns 4 (0x4)
T15A4 62051:933.099 JLINK_ReadMemEx(0x40010C04, 0x4 Bytes, Flags = 0x02000000)
T15A4 62051:933.109   CPU_ReadMem(4 bytes @ 0x40010C04)
T15A4 62051:933.497   Data:  44 44 44 44
T15A4 62051:933.511 - 0.415ms returns 4 (0x4)
T15A4 62051:933.521 JLINK_ReadMemEx(0x40010C08, 0x4 Bytes, Flags = 0x02000000)
T15A4 62051:933.531   CPU_ReadMem(4 bytes @ 0x40010C08)
T15A4 62051:933.864   Data:  00 00 00 00
T15A4 62051:933.877 - 0.359ms returns 4 (0x4)
T15A4 62051:933.888 JLINK_ReadMemEx(0x40010C0C, 0x4 Bytes, Flags = 0x02000000)
T15A4 62051:933.897   CPU_ReadMem(4 bytes @ 0x40010C0C)
T15A4 62051:934.214   Data:  10 00 00 00
T15A4 62051:934.228 - 0.343ms returns 4 (0x4)
T15A4 62051:934.238 JLINK_ReadMemEx(0x40010C10, 0x4 Bytes, Flags = 0x02000000)
T15A4 62051:934.247   CPU_ReadMem(4 bytes @ 0x40010C10)
T15A4 62051:934.572   Data:  00 00 00 00
T15A4 62051:934.585 - 0.350ms returns 4 (0x4)
T15A4 62051:934.595 JLINK_ReadMemEx(0x40010C14, 0x4 Bytes, Flags = 0x02000000)
T15A4 62051:934.605   CPU_ReadMem(4 bytes @ 0x40010C14)
T15A4 62051:934.897   Data:  00 00 00 00
T15A4 62051:934.910 - 0.318ms returns 4 (0x4)
T15A4 62051:934.920 JLINK_ReadMemEx(0x40010C18, 0x4 Bytes, Flags = 0x02000000)
T15A4 62051:934.930   CPU_ReadMem(4 bytes @ 0x40010C18)
T15A4 62051:935.294   Data:  00 00 00 00
T15A4 62051:935.308 - 0.390ms returns 4 (0x4)
T15A4 62051:936.296 JLINK_ReadMemEx(0x40021018, 0x4 Bytes, Flags = 0x02000000)
T15A4 62051:936.323   CPU_ReadMem(4 bytes @ 0x40021018)
T15A4 62051:936.640   Data:  00 00 00 00
T15A4 62051:936.665 - 0.373ms returns 4 (0x4)
T15A4 62051:936.683 JLINK_ReadMemEx(0x4002100C, 0x4 Bytes, Flags = 0x02000000)
T15A4 62051:936.696   CPU_ReadMem(4 bytes @ 0x4002100C)
T15A4 62051:937.029   Data:  00 00 00 00
T15A4 62051:937.043 - 0.363ms returns 4 (0x4)
T15A4 62051:979.955 JLINK_ReadMemEx(0x40011000, 0x4 Bytes, Flags = 0x02000000)
T15A4 62051:979.990   CPU_ReadMem(4 bytes @ 0x40011000)
T15A4 62051:980.319   Data:  44 44 44 44
T15A4 62051:980.335 - 0.383ms returns 4 (0x4)
T15A4 62051:980.346 JLINK_ReadMemEx(0x40011004, 0x4 Bytes, Flags = 0x02000000)
T15A4 62051:980.356   CPU_ReadMem(4 bytes @ 0x40011004)
T15A4 62051:980.738   Data:  44 44 44 44
T15A4 62051:980.752 - 0.409ms returns 4 (0x4)
T15A4 62051:980.762 JLINK_ReadMemEx(0x40011008, 0x4 Bytes, Flags = 0x02000000)
T15A4 62051:980.772   CPU_ReadMem(4 bytes @ 0x40011008)
T15A4 62051:981.102   Data:  00 00 00 00
T15A4 62051:981.115 - 0.356ms returns 4 (0x4)
T15A4 62051:981.125 JLINK_ReadMemEx(0x4001100C, 0x4 Bytes, Flags = 0x02000000)
T15A4 62051:981.135   CPU_ReadMem(4 bytes @ 0x4001100C)
T15A4 62051:981.491   Data:  00 00 00 00
T15A4 62051:981.505 - 0.382ms returns 4 (0x4)
T15A4 62051:981.515 JLINK_ReadMemEx(0x40011010, 0x4 Bytes, Flags = 0x02000000)
T15A4 62051:981.525   CPU_ReadMem(4 bytes @ 0x40011010)
T15A4 62051:981.848   Data:  00 00 00 00
T15A4 62051:981.862 - 0.349ms returns 4 (0x4)
T15A4 62051:981.872 JLINK_ReadMemEx(0x40011014, 0x4 Bytes, Flags = 0x02000000)
T15A4 62051:981.881   CPU_ReadMem(4 bytes @ 0x40011014)
T15A4 62051:982.204   Data:  00 00 00 00
T15A4 62051:982.218 - 0.349ms returns 4 (0x4)
T15A4 62051:982.228 JLINK_ReadMemEx(0x40011018, 0x4 Bytes, Flags = 0x02000000)
T15A4 62051:982.237   CPU_ReadMem(4 bytes @ 0x40011018)
T15A4 62051:982.555   Data:  00 00 00 00
T15A4 62051:982.569 - 0.344ms returns 4 (0x4)
T15A4 62051:983.388 JLINK_ReadMemEx(0x40021018, 0x4 Bytes, Flags = 0x02000000)
T15A4 62051:983.402   CPU_ReadMem(4 bytes @ 0x40021018)
T15A4 62051:983.720   Data:  00 00 00 00
T15A4 62051:983.734 - 0.349ms returns 4 (0x4)
T15A4 62051:983.745 JLINK_ReadMemEx(0x4002100C, 0x4 Bytes, Flags = 0x02000000)
T15A4 62051:983.754   CPU_ReadMem(4 bytes @ 0x4002100C)
T15A4 62051:984.114   Data:  00 00 00 00
T15A4 62051:984.128 - 0.386ms returns 4 (0x4)
T15A4 62052:020.194 JLINK_ReadMemEx(0x40021000, 0x4 Bytes, Flags = 0x02000000)
T15A4 62052:020.296   CPU_ReadMem(4 bytes @ 0x40021000)
T15A4 62052:020.685   Data:  83 56 00 00
T15A4 62052:020.716 - 0.526ms returns 4 (0x4)
T15A4 62052:020.734 JLINK_ReadMemEx(0x40021004, 0x4 Bytes, Flags = 0x02000000)
T15A4 62052:020.749   CPU_ReadMem(4 bytes @ 0x40021004)
T15A4 62052:021.068   Data:  00 00 00 00
T15A4 62052:021.084 - 0.354ms returns 4 (0x4)
T15A4 62052:021.096 JLINK_ReadMemEx(0x40021020, 0x4 Bytes, Flags = 0x02000000)
T15A4 62052:021.106   CPU_ReadMem(4 bytes @ 0x40021020)
T15A4 62052:021.494   Data:  00 00 00 00
T15A4 62052:021.508 - 0.415ms returns 4 (0x4)
T15A4 62052:021.522 JLINK_ReadMemEx(0x40004800, 0x4 Bytes, Flags = 0x02000000)
T15A4 62052:021.532   CPU_ReadMem(4 bytes @ 0x40004800)
T15A4 62052:021.854   Data:  00 00 00 00
T15A4 62052:021.868 - 0.348ms returns 4 (0x4)
T15A4 62052:021.982 JLINK_ReadMemEx(0x40004804, 0x4 Bytes, Flags = 0x02000000)
T15A4 62052:021.994   CPU_ReadMem(4 bytes @ 0x40004804)
T15A4 62052:022.292   Data:  00 00 00 00
T15A4 62052:022.306 - 0.327ms returns 4 (0x4)
T15A4 62052:022.316 JLINK_ReadMemEx(0x40004808, 0x4 Bytes, Flags = 0x02000000)
T15A4 62052:022.326   CPU_ReadMem(4 bytes @ 0x40004808)
T15A4 62052:022.630   Data:  00 00 00 00
T15A4 62052:022.644 - 0.331ms returns 4 (0x4)
T15A4 62052:022.654 JLINK_ReadMemEx(0x4000480C, 0x4 Bytes, Flags = 0x02000000)
T15A4 62052:022.664   CPU_ReadMem(4 bytes @ 0x4000480C)
T15A4 62052:022.972   Data:  00 00 00 00
T15A4 62052:022.986 - 0.334ms returns 4 (0x4)
T15A4 62052:022.996 JLINK_ReadMemEx(0x40004810, 0x4 Bytes, Flags = 0x02000000)
T15A4 62052:023.006   CPU_ReadMem(4 bytes @ 0x40004810)
T15A4 62052:023.311   Data:  00 00 00 00
T15A4 62052:023.325 - 0.332ms returns 4 (0x4)
T15A4 62052:023.335 JLINK_ReadMemEx(0x40004814, 0x4 Bytes, Flags = 0x02000000)
T15A4 62052:023.345   CPU_ReadMem(4 bytes @ 0x40004814)
T15A4 62052:023.634   Data:  00 00 00 00
T15A4 62052:023.647 - 0.315ms returns 4 (0x4)
T15A4 62052:023.657 JLINK_ReadMemEx(0x40004818, 0x4 Bytes, Flags = 0x02000000)
T15A4 62052:023.667   CPU_ReadMem(4 bytes @ 0x40004818)
T15A4 62052:023.943   Data:  00 00 00 00
T15A4 62052:023.957 - 0.302ms returns 4 (0x4)
T15A4 62052:023.968 JLINK_ReadMemEx(0x40021000, 0x4 Bytes, Flags = 0x02000000)
T15A4 62052:023.978   CPU_ReadMem(4 bytes @ 0x40021000)
T15A4 62052:024.262   Data:  83 56 00 00
T15A4 62052:024.275 - 0.310ms returns 4 (0x4)
T15A4 62052:024.285 JLINK_ReadMemEx(0x40021004, 0x4 Bytes, Flags = 0x02000000)
T15A4 62052:024.295   CPU_ReadMem(4 bytes @ 0x40021004)
T15A4 62052:024.552   Data:  00 00 00 00
T15A4 62052:024.566 - 0.283ms returns 4 (0x4)
T15A4 62052:024.576 JLINK_ReadMemEx(0x40021020, 0x4 Bytes, Flags = 0x02000000)
T15A4 62052:024.585   CPU_ReadMem(4 bytes @ 0x40021020)
T15A4 62052:024.959   Data:  00 00 00 00
T15A4 62052:024.973 - 0.400ms returns 4 (0x4)
T15A4 62052:025.638 JLINK_ReadMemEx(0x4002101C, 0x4 Bytes, Flags = 0x02000000)
T15A4 62052:025.651   CPU_ReadMem(4 bytes @ 0x4002101C)
T15A4 62052:025.914   Data:  00 00 00 00
T15A4 62052:025.928 - 0.293ms returns 4 (0x4)
T15A4 62052:025.939 JLINK_ReadMemEx(0x40021010, 0x4 Bytes, Flags = 0x02000000)
T15A4 62052:025.948   CPU_ReadMem(4 bytes @ 0x40021010)
T15A4 62052:026.262   Data:  00 00 00 00
T15A4 62052:026.276 - 0.340ms returns 4 (0x4)
T15A4 62052:059.706 JLINK_ReadMemEx(0x4000480C, 0x4 Bytes, Flags = 0x02000000)
T15A4 62052:059.742   CPU_ReadMem(4 bytes @ 0x4000480C)
T15A4 62052:060.090   Data:  00 00 00 00
T15A4 62052:060.105 - 0.402ms returns 4 (0x4)
T15A4 62053:288.482 JLINK_HasError()
T15A4 62053:288.505 JLINK_ReadReg(R0)
T15A4 62053:288.783 - 0.285ms returns 0x00000000
T15A4 62053:288.798 JLINK_ReadReg(R1)
T15A4 62053:288.806 - 0.011ms returns 0x00000003
T15A4 62053:288.814 JLINK_ReadReg(R2)
T15A4 62053:288.821 - 0.010ms returns 0x40022000
T15A4 62053:288.830 JLINK_ReadReg(R3)
T15A4 62053:288.837 - 0.010ms returns 0x04C11DB7
T15A4 62053:288.848 JLINK_ReadReg(R4)
T15A4 62053:288.856 - 0.011ms returns 0x00000000
T15A4 62053:288.864 JLINK_ReadReg(R5)
T15A4 62053:288.871 - 0.010ms returns 0x00000000
T15A4 62053:288.879 JLINK_ReadReg(R6)
T15A4 62053:288.886 - 0.010ms returns 0x00000000
T15A4 62053:288.895 JLINK_ReadReg(R7)
T15A4 62053:288.902 - 0.010ms returns 0x00000000
T15A4 62053:288.910 JLINK_ReadReg(R8)
T15A4 62053:288.917 - 0.010ms returns 0x00000000
T15A4 62053:288.925 JLINK_ReadReg(R9)
T15A4 62053:288.932 - 0.010ms returns 0x20000160
T15A4 62053:288.940 JLINK_ReadReg(R10)
T15A4 62053:288.947 - 0.010ms returns 0x00000000
T15A4 62053:288.955 JLINK_ReadReg(R11)
T15A4 62053:288.962 - 0.010ms returns 0x00000000
T15A4 62053:288.970 JLINK_ReadReg(R12)
T15A4 62053:288.977 - 0.010ms returns 0x00000000
T15A4 62053:288.985 JLINK_ReadReg(R13 (SP))
T15A4 62053:288.992 - 0.010ms returns 0x20000400
T15A4 62053:289.000 JLINK_ReadReg(R14)
T15A4 62053:289.007 - 0.010ms returns 0xFFFFFFFF
T15A4 62053:289.015 JLINK_ReadReg(R15 (PC))
T15A4 62053:289.024 - 0.013ms returns 0x08001440
T15A4 62053:289.033 JLINK_ReadReg(XPSR)
T15A4 62053:289.039 - 0.009ms returns 0x01000000
T15A4 62053:289.047 JLINK_ReadReg(MSP)
T15A4 62053:289.054 - 0.009ms returns 0x20000400
T15A4 62053:289.062 JLINK_ReadReg(PSP)
T15A4 62053:289.068 - 0.009ms returns 0x20001000
T15A4 62053:289.076 JLINK_ReadReg(CFBP)
T15A4 62053:289.082 - 0.009ms returns 0x00000000
T15A4 62053:289.501 JLINK_ReadMemEx(0xE000EDFC, 0x4 Bytes, Flags = 0x02000000)
T15A4 62053:289.519   CPU_ReadMem(4 bytes @ 0xE000EDFC)
T15A4 62053:289.809   Data:  00 00 00 01
T15A4 62053:289.823   Debug reg: DEMCR
T15A4 62053:289.833 - 0.335ms returns 4 (0x4)
T15A4 62053:289.904 JLINK_WriteMemEx(0xE000EDFC, 0x00000004 Bytes, Flags = 0x02000000)
T15A4 62053:289.913   Data:  F0 07 00 01
T15A4 62053:289.923   Debug reg: DEMCR
T15A4 62053:289.936   CPU_WriteMem(4 bytes @ 0xE000EDFC)
T15A4 62053:290.171 - 0.274ms returns 0x4
T755C 62053:329.383 JLINK_ReadMemEx(0x08001440, 0x2 Bytes, Flags = 0x02000000)
T755C 62053:329.414    -- Read from C cache (2 bytes @ 0x08001440)
T755C 62053:329.425   Data:  09 48
T755C 62053:329.435 - 0.055ms returns 2 (0x2)
T755C 62053:329.444 JLINK_HasError()
T755C 62053:329.457 JLINK_SetBPEx(Addr = 0x08000324, Type = 0xFFFFFFF2)
T755C 62053:329.467 - 0.013ms returns 0x00000001
T755C 62053:329.476 JLINK_HasError()
T755C 62053:329.484 JLINK_HasError()
T755C 62053:329.493 JLINK_Go()
T755C 62053:329.511   CPU_ReadMem(4 bytes @ 0xE0001000)
T755C 62053:329.791   CPU_WriteMem(4 bytes @ 0xE0002008)
T755C 62053:329.806   CPU_WriteMem(4 bytes @ 0xE000200C)
T755C 62053:329.816   CPU_WriteMem(4 bytes @ 0xE0002010)
T755C 62053:329.825   CPU_WriteMem(4 bytes @ 0xE0002014)
T755C 62053:329.835   CPU_WriteMem(4 bytes @ 0xE0002018)
T755C 62053:329.845   CPU_WriteMem(4 bytes @ 0xE000201C)
T755C 62053:330.786   CPU_WriteMem(4 bytes @ 0xE0001004)
T755C 62053:331.360 - 1.874ms
T755C 62053:432.005 JLINK_HasError()
T755C 62053:432.032 JLINK_IsHalted()
T755C 62053:433.915 - 1.892ms returns TRUE
T755C 62053:433.932 JLINK_HasError()
T755C 62053:433.941 JLINK_Halt()
T755C 62053:433.947 - 0.010ms returns 0x00
T755C 62053:433.956 JLINK_IsHalted()
T755C 62053:433.962 - 0.009ms returns TRUE
T755C 62053:433.970 JLINK_IsHalted()
T755C 62053:433.977 - 0.009ms returns TRUE
T755C 62053:433.985 JLINK_IsHalted()
T755C 62053:433.991 - 0.009ms returns TRUE
T755C 62053:434.000 JLINK_HasError()
T755C 62053:434.008 JLINK_ReadReg(R15 (PC))
T755C 62053:434.016 - 0.012ms returns 0x08000324
T755C 62053:434.025 JLINK_ReadReg(XPSR)
T755C 62053:434.032 - 0.010ms returns 0x21000000
T755C 62053:434.042 JLINK_HasError()
T755C 62053:434.052 JLINK_ClrBPEx(BPHandle = 0x00000001)
T755C 62053:434.060 - 0.010ms returns 0x00
T755C 62053:434.068 JLINK_HasError()
T755C 62053:434.076 JLINK_HasError()
T755C 62053:434.084 JLINK_ReadMemU32(0xE000ED30, 0x1 Items)
T755C 62053:434.095   CPU_ReadMem(4 bytes @ 0xE000ED30)
T755C 62053:434.453   Data:  02 00 00 00
T755C 62053:434.470 - 0.389ms returns 1 (0x1)
T755C 62053:434.483 JLINK_ReadMemU32(0xE0001028, 0x1 Items)
T755C 62053:434.495   CPU_ReadMem(4 bytes @ 0xE0001028)
T755C 62053:434.848   Data:  00 00 00 00
T755C 62053:434.865   Debug reg: DWT_FUNC[0]
T755C 62053:434.875 - 0.395ms returns 1 (0x1)
T755C 62053:434.885 JLINK_ReadMemU32(0xE0001038, 0x1 Items)
T755C 62053:434.897   CPU_ReadMem(4 bytes @ 0xE0001038)
T755C 62053:435.310   Data:  00 02 00 00
T755C 62053:435.326   Debug reg: DWT_FUNC[1]
T755C 62053:435.335 - 0.454ms returns 1 (0x1)
T755C 62053:435.347 JLINK_ReadMemU32(0xE0001048, 0x1 Items)
T755C 62053:435.358   CPU_ReadMem(4 bytes @ 0xE0001048)
T755C 62053:435.698   Data:  00 00 00 00
T755C 62053:435.714   Debug reg: DWT_FUNC[2]
T755C 62053:435.724 - 0.379ms returns 1 (0x1)
T755C 62053:435.736 JLINK_ReadMemU32(0xE0001058, 0x1 Items)
T755C 62053:435.746   CPU_ReadMem(4 bytes @ 0xE0001058)
T755C 62053:436.092   Data:  00 00 00 00
T755C 62053:436.108   Debug reg: DWT_FUNC[3]
T755C 62053:436.118 - 0.385ms returns 1 (0x1)
T755C 62053:436.184 JLINK_HasError()
T755C 62053:436.194 JLINK_ReadReg(R0)
T755C 62053:436.202 - 0.011ms returns 0x20000400
T755C 62053:436.211 JLINK_ReadReg(R1)
T755C 62053:436.218 - 0.010ms returns 0x20000400
T755C 62053:436.226 JLINK_ReadReg(R2)
T755C 62053:436.233 - 0.010ms returns 0x20000400
T755C 62053:436.241 JLINK_ReadReg(R3)
T755C 62053:436.248 - 0.010ms returns 0x20000000
T755C 62053:436.256 JLINK_ReadReg(R4)
T755C 62053:436.263 - 0.010ms returns 0x00000000
T755C 62053:436.271 JLINK_ReadReg(R5)
T755C 62053:436.278 - 0.010ms returns 0x20001014
T755C 62053:436.287 JLINK_ReadReg(R6)
T755C 62053:436.293 - 0.010ms returns 0x00000000
T755C 62053:436.302 JLINK_ReadReg(R7)
T755C 62053:436.308 - 0.010ms returns 0x00000000
T755C 62053:436.317 JLINK_ReadReg(R8)
T755C 62053:436.324 - 0.010ms returns 0x00000000
T755C 62053:436.332 JLINK_ReadReg(R9)
T755C 62053:436.339 - 0.010ms returns 0x20000160
T755C 62053:436.347 JLINK_ReadReg(R10)
T755C 62053:436.354 - 0.010ms returns 0x0800A58C
T755C 62053:436.362 JLINK_ReadReg(R11)
T755C 62053:436.368 - 0.010ms returns 0x00000000
T755C 62053:436.377 JLINK_ReadReg(R12)
T755C 62053:436.383 - 0.010ms returns 0x20001054
T755C 62053:436.391 JLINK_ReadReg(R13 (SP))
T755C 62053:436.398 - 0.010ms returns 0x20000400
T755C 62053:436.407 JLINK_ReadReg(R14)
T755C 62053:436.413 - 0.010ms returns 0x080001C7
T755C 62053:436.422 JLINK_ReadReg(R15 (PC))
T755C 62053:436.428 - 0.010ms returns 0x08000324
T755C 62053:436.437 JLINK_ReadReg(XPSR)
T755C 62053:436.443 - 0.010ms returns 0x21000000
T755C 62053:436.452 JLINK_ReadReg(MSP)
T755C 62053:436.458 - 0.010ms returns 0x20000400
T755C 62053:436.466 JLINK_ReadReg(PSP)
T755C 62053:436.473 - 0.010ms returns 0x20001000
T755C 62053:436.481 JLINK_ReadReg(CFBP)
T755C 62053:436.488 - 0.010ms returns 0x00000000
T15A4 62053:436.957 JLINK_ReadMemEx(0x00000000, 0x4 Bytes, Flags = 0x02000000)
T15A4 62053:436.972   CPU_ReadMem(4 bytes @ 0x40023844)
T15A4 62053:437.398   CPU_ReadMem(64 bytes @ 0x08000000)
T15A4 62053:437.931    -- Updating C cache (64 bytes @ 0x08000000)
T15A4 62053:437.947    -- Read from C cache (4 bytes @ 0x08000000)
T15A4 62053:437.958   Data:  00 04 00 20
T15A4 62053:437.968 - 1.014ms returns 4 (0x4)
T15A4 62053:443.232 JLINK_HasError()
T15A4 62053:443.253 JLINK_ReadMemU32(0xE0001004, 0x1 Items)
T15A4 62053:443.267   CPU_ReadMem(4 bytes @ 0xE0001004)
T15A4 62053:443.594   Data:  60 59 00 00
T15A4 62053:443.611   Debug reg: DWT_CYCCNT
T15A4 62053:443.621 - 0.370ms returns 1 (0x1)
T15A4 62053:447.333 JLINK_ReadMemEx(0x40010800, 0x4 Bytes, Flags = 0x02000000)
T15A4 62053:447.359   CPU_ReadMem(4 bytes @ 0x40010800)
T15A4 62053:447.635   Data:  44 44 44 44
T15A4 62053:447.649 - 0.320ms returns 4 (0x4)
T15A4 62053:447.660 JLINK_ReadMemEx(0x40010804, 0x4 Bytes, Flags = 0x02000000)
T15A4 62053:447.671   CPU_ReadMem(4 bytes @ 0x40010804)
T15A4 62053:447.933   Data:  44 44 84 88
T15A4 62053:447.947 - 0.289ms returns 4 (0x4)
T15A4 62053:447.957 JLINK_ReadMemEx(0x40010808, 0x4 Bytes, Flags = 0x02000000)
T15A4 62053:448.009   CPU_ReadMem(4 bytes @ 0x40010808)
T15A4 62053:448.309   Data:  00 00 00 00
T15A4 62053:448.323 - 0.369ms returns 4 (0x4)
T15A4 62053:448.333 JLINK_ReadMemEx(0x4001080C, 0x4 Bytes, Flags = 0x02000000)
T15A4 62053:448.343   CPU_ReadMem(4 bytes @ 0x4001080C)
T15A4 62053:448.706   Data:  00 A0 00 00
T15A4 62053:448.720 - 0.389ms returns 4 (0x4)
T15A4 62053:448.730 JLINK_ReadMemEx(0x40010810, 0x4 Bytes, Flags = 0x02000000)
T15A4 62053:448.740   CPU_ReadMem(4 bytes @ 0x40010810)
T15A4 62053:448.999   Data:  00 00 00 00
T15A4 62053:449.013 - 0.286ms returns 4 (0x4)
T15A4 62053:449.023 JLINK_ReadMemEx(0x40010814, 0x4 Bytes, Flags = 0x02000000)
T15A4 62053:449.033   CPU_ReadMem(4 bytes @ 0x40010814)
T15A4 62053:449.284   Data:  00 00 00 00
T15A4 62053:449.298 - 0.278ms returns 4 (0x4)
T15A4 62053:449.308 JLINK_ReadMemEx(0x40010818, 0x4 Bytes, Flags = 0x02000000)
T15A4 62053:449.318   CPU_ReadMem(4 bytes @ 0x40010818)
T15A4 62053:449.583   Data:  00 00 00 00
T15A4 62053:449.597 - 0.291ms returns 4 (0x4)
T15A4 62053:449.611 JLINK_ReadMemEx(0x40021018, 0x4 Bytes, Flags = 0x02000000)
T15A4 62053:449.622   CPU_ReadMem(4 bytes @ 0x40021018)
T15A4 62053:449.885   Data:  00 00 00 00
T15A4 62053:449.899 - 0.290ms returns 4 (0x4)
T15A4 62053:449.909 JLINK_ReadMemEx(0x4002100C, 0x4 Bytes, Flags = 0x02000000)
T15A4 62053:449.919   CPU_ReadMem(4 bytes @ 0x4002100C)
T15A4 62053:450.182   Data:  00 00 00 00
T15A4 62053:450.196 - 0.290ms returns 4 (0x4)
T15A4 62053:450.300 JLINK_ReadMemEx(0x40010C00, 0x4 Bytes, Flags = 0x02000000)
T15A4 62053:450.313   CPU_ReadMem(4 bytes @ 0x40010C00)
T15A4 62053:450.570   Data:  44 44 48 44
T15A4 62053:450.584 - 0.286ms returns 4 (0x4)
T15A4 62053:450.594 JLINK_ReadMemEx(0x40010C04, 0x4 Bytes, Flags = 0x02000000)
T15A4 62053:450.604   CPU_ReadMem(4 bytes @ 0x40010C04)
T15A4 62053:450.866   Data:  44 44 44 44
T15A4 62053:450.880 - 0.289ms returns 4 (0x4)
T15A4 62053:450.890 JLINK_ReadMemEx(0x40010C08, 0x4 Bytes, Flags = 0x02000000)
T15A4 62053:450.900   CPU_ReadMem(4 bytes @ 0x40010C08)
T15A4 62053:451.165   Data:  00 00 00 00
T15A4 62053:451.178 - 0.291ms returns 4 (0x4)
T15A4 62053:451.189 JLINK_ReadMemEx(0x40010C0C, 0x4 Bytes, Flags = 0x02000000)
T15A4 62053:451.198   CPU_ReadMem(4 bytes @ 0x40010C0C)
T15A4 62053:451.460   Data:  10 00 00 00
T15A4 62053:451.473 - 0.287ms returns 4 (0x4)
T15A4 62053:451.483 JLINK_ReadMemEx(0x40010C10, 0x4 Bytes, Flags = 0x02000000)
T15A4 62053:451.493   CPU_ReadMem(4 bytes @ 0x40010C10)
T15A4 62053:451.750   Data:  00 00 00 00
T15A4 62053:451.764 - 0.283ms returns 4 (0x4)
T15A4 62053:451.774 JLINK_ReadMemEx(0x40010C14, 0x4 Bytes, Flags = 0x02000000)
T15A4 62053:451.783   CPU_ReadMem(4 bytes @ 0x40010C14)
T15A4 62053:452.041   Data:  00 00 00 00
T15A4 62053:452.056 - 0.284ms returns 4 (0x4)
T15A4 62053:452.066 JLINK_ReadMemEx(0x40010C18, 0x4 Bytes, Flags = 0x02000000)
T15A4 62053:452.075   CPU_ReadMem(4 bytes @ 0x40010C18)
T15A4 62053:452.373   Data:  00 00 00 00
T15A4 62053:452.388 - 0.325ms returns 4 (0x4)
T15A4 62053:452.401 JLINK_ReadMemEx(0x40021018, 0x4 Bytes, Flags = 0x02000000)
T15A4 62053:452.411   CPU_ReadMem(4 bytes @ 0x40021018)
T15A4 62053:452.710   Data:  00 00 00 00
T15A4 62053:452.724 - 0.326ms returns 4 (0x4)
T15A4 62053:452.734 JLINK_ReadMemEx(0x4002100C, 0x4 Bytes, Flags = 0x02000000)
T15A4 62053:452.744   CPU_ReadMem(4 bytes @ 0x4002100C)
T15A4 62053:453.032   Data:  00 00 00 00
T15A4 62053:453.045 - 0.314ms returns 4 (0x4)
T15A4 62053:453.152 JLINK_ReadMemEx(0x40011000, 0x4 Bytes, Flags = 0x02000000)
T15A4 62053:453.164   CPU_ReadMem(4 bytes @ 0x40011000)
T15A4 62053:453.459   Data:  44 44 44 44
T15A4 62053:453.473 - 0.324ms returns 4 (0x4)
T15A4 62053:453.483 JLINK_ReadMemEx(0x40011004, 0x4 Bytes, Flags = 0x02000000)
T15A4 62053:453.493   CPU_ReadMem(4 bytes @ 0x40011004)
T15A4 62053:453.757   Data:  44 44 44 44
T15A4 62053:453.770 - 0.290ms returns 4 (0x4)
T15A4 62053:453.780 JLINK_ReadMemEx(0x40011008, 0x4 Bytes, Flags = 0x02000000)
T15A4 62053:453.790   CPU_ReadMem(4 bytes @ 0x40011008)
T15A4 62053:454.057   Data:  00 00 00 00
T15A4 62053:454.071 - 0.293ms returns 4 (0x4)
T15A4 62053:454.081 JLINK_ReadMemEx(0x4001100C, 0x4 Bytes, Flags = 0x02000000)
T15A4 62053:454.090   CPU_ReadMem(4 bytes @ 0x4001100C)
T15A4 62053:454.461   Data:  00 00 00 00
T15A4 62053:454.475 - 0.397ms returns 4 (0x4)
T15A4 62053:454.485 JLINK_ReadMemEx(0x40011010, 0x4 Bytes, Flags = 0x02000000)
T15A4 62053:454.494   CPU_ReadMem(4 bytes @ 0x40011010)
T15A4 62053:454.757   Data:  00 00 00 00
T15A4 62053:454.771 - 0.289ms returns 4 (0x4)
T15A4 62053:454.781 JLINK_ReadMemEx(0x40011014, 0x4 Bytes, Flags = 0x02000000)
T15A4 62053:454.791   CPU_ReadMem(4 bytes @ 0x40011014)
T15A4 62053:455.048   Data:  00 00 00 00
T15A4 62053:455.062 - 0.284ms returns 4 (0x4)
T15A4 62053:455.072 JLINK_ReadMemEx(0x40011018, 0x4 Bytes, Flags = 0x02000000)
T15A4 62053:455.081   CPU_ReadMem(4 bytes @ 0x40011018)
T15A4 62053:455.334   Data:  00 00 00 00
T15A4 62053:455.348 - 0.279ms returns 4 (0x4)
T15A4 62053:455.360 JLINK_ReadMemEx(0x40021018, 0x4 Bytes, Flags = 0x02000000)
T15A4 62053:455.370   CPU_ReadMem(4 bytes @ 0x40021018)
T15A4 62053:455.634   Data:  00 00 00 00
T15A4 62053:455.648 - 0.291ms returns 4 (0x4)
T15A4 62053:455.658 JLINK_ReadMemEx(0x4002100C, 0x4 Bytes, Flags = 0x02000000)
T15A4 62053:455.668   CPU_ReadMem(4 bytes @ 0x4002100C)
T15A4 62053:455.927   Data:  00 00 00 00
T15A4 62053:455.941 - 0.285ms returns 4 (0x4)
T15A4 62053:456.036 JLINK_ReadMemEx(0x40021000, 0x4 Bytes, Flags = 0x02000000)
T15A4 62053:456.048   CPU_ReadMem(4 bytes @ 0x40021000)
T15A4 62053:456.309   Data:  83 56 03 03
T15A4 62053:456.323 - 0.290ms returns 4 (0x4)
T15A4 62053:456.333 JLINK_ReadMemEx(0x40021004, 0x4 Bytes, Flags = 0x02000000)
T15A4 62053:456.343   CPU_ReadMem(4 bytes @ 0x40021004)
T15A4 62053:456.706   Data:  0A 04 1D 00
T15A4 62053:456.720 - 0.390ms returns 4 (0x4)
T15A4 62053:456.730 JLINK_ReadMemEx(0x40021020, 0x4 Bytes, Flags = 0x02000000)
T15A4 62053:456.740   CPU_ReadMem(4 bytes @ 0x40021020)
T15A4 62053:457.007   Data:  00 00 00 00
T15A4 62053:457.021 - 0.294ms returns 4 (0x4)
T15A4 62053:457.034 JLINK_ReadMemEx(0x40004800, 0x4 Bytes, Flags = 0x02000000)
T15A4 62053:457.045   CPU_ReadMem(4 bytes @ 0x40004800)
T15A4 62053:457.309   Data:  00 00 00 00
T15A4 62053:457.323 - 0.291ms returns 4 (0x4)
T15A4 62053:457.333 JLINK_ReadMemEx(0x40004804, 0x4 Bytes, Flags = 0x02000000)
T15A4 62053:457.343   CPU_ReadMem(4 bytes @ 0x40004804)
T15A4 62053:457.708   Data:  00 00 00 00
T15A4 62053:457.722 - 0.392ms returns 4 (0x4)
T15A4 62053:457.732 JLINK_ReadMemEx(0x40004808, 0x4 Bytes, Flags = 0x02000000)
T15A4 62053:457.742   CPU_ReadMem(4 bytes @ 0x40004808)
T15A4 62053:458.001   Data:  00 00 00 00
T15A4 62053:458.015 - 0.286ms returns 4 (0x4)
T15A4 62053:458.025 JLINK_ReadMemEx(0x4000480C, 0x4 Bytes, Flags = 0x02000000)
T15A4 62053:458.034   CPU_ReadMem(4 bytes @ 0x4000480C)
T15A4 62053:458.284   Data:  00 00 00 00
T15A4 62053:458.298 - 0.276ms returns 4 (0x4)
T15A4 62053:458.308 JLINK_ReadMemEx(0x40004810, 0x4 Bytes, Flags = 0x02000000)
T15A4 62053:458.318   CPU_ReadMem(4 bytes @ 0x40004810)
T15A4 62053:458.581   Data:  00 00 00 00
T15A4 62053:458.595 - 0.290ms returns 4 (0x4)
T15A4 62053:458.605 JLINK_ReadMemEx(0x40004814, 0x4 Bytes, Flags = 0x02000000)
T15A4 62053:458.614   CPU_ReadMem(4 bytes @ 0x40004814)
T15A4 62053:458.873   Data:  00 00 00 00
T15A4 62053:458.886 - 0.284ms returns 4 (0x4)
T15A4 62053:458.896 JLINK_ReadMemEx(0x40004818, 0x4 Bytes, Flags = 0x02000000)
T15A4 62053:458.906   CPU_ReadMem(4 bytes @ 0x40004818)
T15A4 62053:459.171   Data:  00 00 00 00
T15A4 62053:459.185 - 0.291ms returns 4 (0x4)
T15A4 62053:459.195 JLINK_ReadMemEx(0x40021000, 0x4 Bytes, Flags = 0x02000000)
T15A4 62053:459.205   CPU_ReadMem(4 bytes @ 0x40021000)
T15A4 62053:459.462   Data:  83 56 03 03
T15A4 62053:459.476 - 0.284ms returns 4 (0x4)
T15A4 62053:459.486 JLINK_ReadMemEx(0x40021004, 0x4 Bytes, Flags = 0x02000000)
T15A4 62053:459.496   CPU_ReadMem(4 bytes @ 0x40021004)
T15A4 62053:459.761   Data:  0A 04 1D 00
T15A4 62053:459.775 - 0.292ms returns 4 (0x4)
T15A4 62053:459.785 JLINK_ReadMemEx(0x40021020, 0x4 Bytes, Flags = 0x02000000)
T15A4 62053:459.795   CPU_ReadMem(4 bytes @ 0x40021020)
T15A4 62053:460.057   Data:  00 00 00 00
T15A4 62053:460.071 - 0.288ms returns 4 (0x4)
T15A4 62053:460.175 JLINK_ReadMemEx(0x4002101C, 0x4 Bytes, Flags = 0x02000000)
T15A4 62053:460.188   CPU_ReadMem(4 bytes @ 0x4002101C)
T15A4 62053:460.459   Data:  00 00 00 00
T15A4 62053:460.473 - 0.301ms returns 4 (0x4)
T15A4 62053:460.483 JLINK_ReadMemEx(0x40021010, 0x4 Bytes, Flags = 0x02000000)
T15A4 62053:460.493   CPU_ReadMem(4 bytes @ 0x40021010)
T15A4 62053:460.758   Data:  00 00 00 00
T15A4 62053:460.772 - 0.291ms returns 4 (0x4)
T15A4 62053:460.916 JLINK_ReadMemEx(0x08000324, 0x3C Bytes, Flags = 0x02000000)
T15A4 62053:460.930   CPU_ReadMem(128 bytes @ 0x08000300)
T15A4 62053:461.737    -- Updating C cache (128 bytes @ 0x08000300)
T15A4 62053:461.751    -- Read from C cache (60 bytes @ 0x08000324)
T15A4 62053:461.762   Data:  00 F0 4C F8 00 F0 56 FF 00 F0 76 FD 00 F0 B8 FA ...
T15A4 62053:461.771 - 0.858ms returns 60 (0x3C)
T755C 62054:009.833 JLINK_ReadMemEx(0x08000324, 0x2 Bytes, Flags = 0x02000000)
T755C 62054:009.862    -- Read from C cache (2 bytes @ 0x08000324)
T755C 62054:009.873   Data:  00 F0
T755C 62054:009.882 - 0.052ms returns 2 (0x2)
T755C 62054:009.892 JLINK_HasError()
T755C 62054:009.902 JLINK_HasError()
T755C 62054:009.910 JLINK_Go()
T755C 62054:010.259   CPU_ReadMem(4 bytes @ 0xE0001000)
T755C 62054:010.571   CPU_WriteMem(4 bytes @ 0xE0002008)
T755C 62054:011.445 - 1.543ms
T755C 62054:111.967 JLINK_HasError()
T755C 62054:111.998 JLINK_IsHalted()
T755C 62054:112.415 - 0.439ms returns FALSE
T755C 62054:213.250 JLINK_HasError()
T755C 62054:213.281 JLINK_IsHalted()
T755C 62054:213.645 - 0.373ms returns FALSE
T755C 62054:314.363 JLINK_HasError()
T755C 62054:314.396 JLINK_IsHalted()
T755C 62054:315.148 - 0.773ms returns FALSE
T755C 62054:415.612 JLINK_HasError()
T755C 62054:415.645 JLINK_IsHalted()
T755C 62054:415.992 - 0.362ms returns FALSE
T755C 62054:516.480 JLINK_HasError()
T755C 62054:516.522 JLINK_IsHalted()
T755C 62054:516.858 - 0.344ms returns FALSE
T755C 62054:617.577 JLINK_HasError()
T755C 62054:617.612 JLINK_HasError()
T755C 62054:617.621 JLINK_ReadMemU32(0xE0001004, 0x1 Items)
T755C 62054:617.639   CPU_ReadMem(4 bytes @ 0xE0001004)
T755C 62054:618.028   Data:  3E B3 9A 02
T755C 62054:618.050   Debug reg: DWT_CYCCNT
T755C 62054:618.060 - 0.443ms returns 1 (0x1)
T15A4 62054:619.191 JLINK_ReadMemEx(0x40010800, 0x4 Bytes, Flags = 0x02000000)
T15A4 62054:619.220   CPU_ReadMem(4 bytes @ 0x40010800)
T15A4 62054:619.641   Data:  48 44 44 44
T15A4 62054:619.663 - 0.475ms returns 4 (0x4)
T15A4 62054:619.677 JLINK_ReadMemEx(0x40010804, 0x4 Bytes, Flags = 0x02000000)
T15A4 62054:619.689   CPU_ReadMem(4 bytes @ 0x40010804)
T15A4 62054:620.469   Data:  44 B4 8B 88
T15A4 62054:620.498 - 0.825ms returns 4 (0x4)
T15A4 62054:620.514 JLINK_ReadMemEx(0x40010808, 0x4 Bytes, Flags = 0x02000000)
T15A4 62054:620.528   CPU_ReadMem(4 bytes @ 0x40010808)
T15A4 62054:620.961   Data:  FE 07 00 00
T15A4 62054:620.977 - 0.466ms returns 4 (0x4)
T15A4 62054:620.989 JLINK_ReadMemEx(0x4001080C, 0x4 Bytes, Flags = 0x02000000)
T15A4 62054:621.000   CPU_ReadMem(4 bytes @ 0x4001080C)
T15A4 62054:621.344   Data:  00 A0 00 00
T15A4 62054:621.362 - 0.376ms returns 4 (0x4)
T15A4 62054:621.374 JLINK_ReadMemEx(0x40010810, 0x4 Bytes, Flags = 0x02000000)
T15A4 62054:621.386   CPU_ReadMem(4 bytes @ 0x40010810)
T15A4 62054:621.816   Data:  00 00 00 00
T15A4 62054:621.833 - 0.463ms returns 4 (0x4)
T15A4 62054:621.845 JLINK_ReadMemEx(0x40010814, 0x4 Bytes, Flags = 0x02000000)
T15A4 62054:621.856   CPU_ReadMem(4 bytes @ 0x40010814)
T15A4 62054:622.190   Data:  00 00 00 00
T15A4 62054:622.208 - 0.366ms returns 4 (0x4)
T15A4 62054:622.219 JLINK_ReadMemEx(0x40010818, 0x4 Bytes, Flags = 0x02000000)
T15A4 62054:622.230   CPU_ReadMem(4 bytes @ 0x40010818)
T15A4 62054:622.534   Data:  00 00 00 00
T15A4 62054:622.551 - 0.335ms returns 4 (0x4)
T15A4 62054:626.395 JLINK_ReadMemEx(0x40021018, 0x4 Bytes, Flags = 0x02000000)
T15A4 62054:626.418   CPU_ReadMem(4 bytes @ 0x40021018)
T15A4 62054:626.688   Data:  1D 00 00 00
T15A4 62054:626.705 - 0.313ms returns 4 (0x4)
T15A4 62054:626.716 JLINK_ReadMemEx(0x4002100C, 0x4 Bytes, Flags = 0x02000000)
T15A4 62054:626.727   CPU_ReadMem(4 bytes @ 0x4002100C)
T15A4 62054:627.083   Data:  00 00 00 00
T15A4 62054:627.096 - 0.383ms returns 4 (0x4)
T15A4 62054:627.167 JLINK_ReadMemEx(0x40010C00, 0x4 Bytes, Flags = 0x02000000)
T15A4 62054:627.179   CPU_ReadMem(4 bytes @ 0x40010C00)
T15A4 62054:627.458   Data:  44 44 48 44
T15A4 62054:627.472 - 0.308ms returns 4 (0x4)
T15A4 62054:627.482 JLINK_ReadMemEx(0x40010C04, 0x4 Bytes, Flags = 0x02000000)
T15A4 62054:627.492   CPU_ReadMem(4 bytes @ 0x40010C04)
T15A4 62054:627.756   Data:  44 4F 44 44
T15A4 62054:627.770 - 0.291ms returns 4 (0x4)
T15A4 62054:627.780 JLINK_ReadMemEx(0x40010C08, 0x4 Bytes, Flags = 0x02000000)
T15A4 62054:627.789   CPU_ReadMem(4 bytes @ 0x40010C08)
T15A4 62054:628.048   Data:  D3 FF 00 00
T15A4 62054:628.061 - 0.284ms returns 4 (0x4)
T15A4 62054:628.071 JLINK_ReadMemEx(0x40010C0C, 0x4 Bytes, Flags = 0x02000000)
T15A4 62054:628.081   CPU_ReadMem(4 bytes @ 0x40010C0C)
T15A4 62054:628.332   Data:  10 00 00 00
T15A4 62054:628.346 - 0.277ms returns 4 (0x4)
T15A4 62054:628.356 JLINK_ReadMemEx(0x40010C10, 0x4 Bytes, Flags = 0x02000000)
T15A4 62054:628.365   CPU_ReadMem(4 bytes @ 0x40010C10)
T15A4 62054:628.623   Data:  00 00 00 00
T15A4 62054:628.636 - 0.283ms returns 4 (0x4)
T15A4 62054:628.646 JLINK_ReadMemEx(0x40010C14, 0x4 Bytes, Flags = 0x02000000)
T15A4 62054:628.655   CPU_ReadMem(4 bytes @ 0x40010C14)
T15A4 62054:628.920   Data:  00 00 00 00
T15A4 62054:628.933 - 0.290ms returns 4 (0x4)
T15A4 62054:628.943 JLINK_ReadMemEx(0x40010C18, 0x4 Bytes, Flags = 0x02000000)
T15A4 62054:628.952   CPU_ReadMem(4 bytes @ 0x40010C18)
T15A4 62054:629.270   Data:  00 00 00 00
T15A4 62054:629.284 - 0.344ms returns 4 (0x4)
T15A4 62054:632.599 JLINK_ReadMemEx(0x40021018, 0x4 Bytes, Flags = 0x02000000)
T15A4 62054:632.614   CPU_ReadMem(4 bytes @ 0x40021018)
T15A4 62054:632.874   Data:  1D 00 00 00
T15A4 62054:632.888 - 0.292ms returns 4 (0x4)
T15A4 62054:632.898 JLINK_ReadMemEx(0x4002100C, 0x4 Bytes, Flags = 0x02000000)
T15A4 62054:632.907   CPU_ReadMem(4 bytes @ 0x4002100C)
T15A4 62054:633.170   Data:  00 00 00 00
T15A4 62054:633.185 - 0.291ms returns 4 (0x4)
T15A4 62054:633.536 JLINK_ReadMemEx(0x40011000, 0x4 Bytes, Flags = 0x02000000)
T15A4 62054:633.551   CPU_ReadMem(4 bytes @ 0x40011000)
T15A4 62054:633.813   Data:  44 44 44 44
T15A4 62054:633.827 - 0.294ms returns 4 (0x4)
T15A4 62054:633.837 JLINK_ReadMemEx(0x40011004, 0x4 Bytes, Flags = 0x02000000)
T15A4 62054:633.846   CPU_ReadMem(4 bytes @ 0x40011004)
T15A4 62054:634.114   Data:  44 74 47 44
T15A4 62054:634.128 - 0.294ms returns 4 (0x4)
T15A4 62054:634.138 JLINK_ReadMemEx(0x40011008, 0x4 Bytes, Flags = 0x02000000)
T15A4 62054:634.147   CPU_ReadMem(4 bytes @ 0x40011008)
T15A4 62054:634.458   Data:  1F 35 00 00
T15A4 62054:634.472 - 0.337ms returns 4 (0x4)
T15A4 62054:634.482 JLINK_ReadMemEx(0x4001100C, 0x4 Bytes, Flags = 0x02000000)
T15A4 62054:634.491   CPU_ReadMem(4 bytes @ 0x4001100C)
T15A4 62054:634.750   Data:  00 18 00 00
T15A4 62054:634.763 - 0.284ms returns 4 (0x4)
T15A4 62054:634.773 JLINK_ReadMemEx(0x40011010, 0x4 Bytes, Flags = 0x02000000)
T15A4 62054:634.782   CPU_ReadMem(4 bytes @ 0x40011010)
T15A4 62054:635.040   Data:  00 00 00 00
T15A4 62054:635.053 - 0.283ms returns 4 (0x4)
T15A4 62054:635.063 JLINK_ReadMemEx(0x40011014, 0x4 Bytes, Flags = 0x02000000)
T15A4 62054:635.072   CPU_ReadMem(4 bytes @ 0x40011014)
T15A4 62054:635.333   Data:  00 00 00 00
T15A4 62054:635.347 - 0.286ms returns 4 (0x4)
T15A4 62054:635.357 JLINK_ReadMemEx(0x40011018, 0x4 Bytes, Flags = 0x02000000)
T15A4 62054:635.366   CPU_ReadMem(4 bytes @ 0x40011018)
T15A4 62054:635.625   Data:  00 00 00 00
T15A4 62054:635.643 - 0.289ms returns 4 (0x4)
T15A4 62054:638.546 JLINK_ReadMemEx(0x40021018, 0x4 Bytes, Flags = 0x02000000)
T15A4 62054:638.564   CPU_ReadMem(4 bytes @ 0x40021018)
T15A4 62054:638.825   Data:  1D 00 00 00
T15A4 62054:638.839 - 0.296ms returns 4 (0x4)
T15A4 62054:638.849 JLINK_ReadMemEx(0x4002100C, 0x4 Bytes, Flags = 0x02000000)
T15A4 62054:638.859   CPU_ReadMem(4 bytes @ 0x4002100C)
T15A4 62054:639.123   Data:  00 00 00 00
T15A4 62054:639.137 - 0.290ms returns 4 (0x4)
T15A4 62054:639.227 JLINK_ReadMemEx(0x40021000, 0x4 Bytes, Flags = 0x02000000)
T15A4 62054:639.241   CPU_ReadMem(4 bytes @ 0x40021000)
T15A4 62054:639.480   Data:  83 56 03 03
T15A4 62054:639.493 - 0.269ms returns 4 (0x4)
T15A4 62054:639.503 JLINK_ReadMemEx(0x40021004, 0x4 Bytes, Flags = 0x02000000)
T15A4 62054:639.512   CPU_ReadMem(4 bytes @ 0x40021004)
T15A4 62054:639.770   Data:  0A 04 1D 00
T15A4 62054:639.783 - 0.283ms returns 4 (0x4)
T15A4 62054:639.793 JLINK_ReadMemEx(0x40021020, 0x4 Bytes, Flags = 0x02000000)
T15A4 62054:639.802   CPU_ReadMem(4 bytes @ 0x40021020)
T15A4 62054:640.060   Data:  00 00 00 00
T15A4 62054:640.074 - 0.284ms returns 4 (0x4)
T15A4 62054:640.088 JLINK_ReadMemEx(0x40004800, 0x4 Bytes, Flags = 0x02000000)
T15A4 62054:640.097   CPU_ReadMem(4 bytes @ 0x40004800)
T15A4 62054:640.434   Data:  C0 00 00 00
T15A4 62054:640.448 - 0.363ms returns 4 (0x4)
T15A4 62054:640.458 JLINK_ReadMemEx(0x40004804, 0x4 Bytes, Flags = 0x02000000)
T15A4 62054:640.467   CPU_ReadMem(4 bytes @ 0x40004804)
T15A4 62054:640.830   Data:  00 00 00 00
T15A4 62054:640.843 - 0.388ms returns 4 (0x4)
T15A4 62054:640.853 JLINK_ReadMemEx(0x40004808, 0x4 Bytes, Flags = 0x02000000)
T15A4 62054:640.862   CPU_ReadMem(4 bytes @ 0x40004808)
